
T4184 000:343 SEGGER J-Link V5.00k Log File (0001ms, 0275ms total)
T4184 000:343 DLL Compiled: Jul 31 2015 15:48:52 (0001ms, 0275ms total)
T4184 000:343 Logging started @ 2018-05-25 10:57 (0001ms, 0275ms total)
T4184 000:344 JLINK_SetWarnOutHandler(...) (0000ms, 0275ms total)
T4184 000:344 JLINK_OpenEx(...)
Firmware: J-Link V9 compiled Jun 23 2015 10:00:59
Hardware: V9.20
Feature(s): GDB, RDI, FlashBP, FlashDL, JFlash  returns O.K. (0267ms, 0542ms total)
T4184 000:611 JLINK_SetErrorOutHandler(...) (0000ms, 0542ms total)
T4184 000:611 JLINK_ExecCommand("ProjectFile = "D:\work\V11_传输皮带和提升机\V11.3_传送皮带和提升机\V11.3_出药机系统程序V11.3.01(国产)\V11.3_出药机系统程序(国产)\USER\JLinkSettings.ini"", ...)  returns 0x00 (0003ms, 0545ms total)
T4184 000:642 JLINK_ExecCommand("Device = STM32F103RC", ...)Device "STM32F103RC" selected.  returns 0x00 (0018ms, 0563ms total)
T4184 000:660 JLINK_ExecCommand("DisableConnectionTimeout", ...)  returns 0x01 (0000ms, 0563ms total)
T4184 000:660 JLINK_GetHardwareVersion()  returns 0x16760 (0000ms, 0563ms total)
T4184 000:660 JLINK_GetDLLVersion()  returns 50011 (0000ms, 0563ms total)
T4184 000:660 JLINK_GetFirmwareString(...) (0000ms, 0563ms total)
T4184 000:683 JLINK_GetDLLVersion()  returns 50011 (0000ms, 0563ms total)
T4184 000:683 JLINK_GetCompileDateTime() (0000ms, 0563ms total)
T4184 000:685 JLINK_GetFirmwareString(...) (0000ms, 0563ms total)
T4184 000:686 JLINK_GetHardwareVersion()  returns 0x16760 (0000ms, 0563ms total)
T4184 000:693 JLINK_TIF_Select(JLINKARM_TIF_SWD)  returns 0x00 (0000ms, 0563ms total)
T4184 000:693 JLINK_SetSpeed(5000) (0000ms, 0563ms total)
T4184 000:693 JLINK_GetId() >0x108 TIF>Found SWD-DP with ID 0x1BA01477 >0x0D TIF> >0x28 TIF> >0x0D TIF> >0x28 TIF> >0x0D TIF> >0x21 TIF> >0x0D TIF> >0x28 TIF> >0x0D TIF> >0x28 TIF> >0x0D TIF> >0x28 TIF> >0x0D TIF> >0x21 TIF> >0x0D TIF> >0x21 TIF> >0x0D TIF> >0x28 TIF> >0x0D TIF> >0x21 TIF> >0x0D TIF> >0x21 TIF> >0x0D TIF> >0x28 TIF> >0x0D TIF> >0x28 TIF> >0x108 TIF>Found SWD-DP with ID 0x1BA01477 >0x0D TIF> >0x21 TIF> >0x0D TIF> >0x28 TIF> >0x0D TIF> >0x28 TIF> >0x0D TIF> >0x21 TIF> >0x0D TIF> >0x28 TIF>
 >0x0D TIF> >0x21 TIF> >0x0D TIF> >0x21 TIF> >0x0D TIF> >0x21 TIF> >0x0D TIF> >0x21 TIF> >0x0D TIF> >0x28 TIF> >0x0D TIF> >0x28 TIF> >0x0D TIF> >0x21 TIF> >0x0D TIF> >0x28 TIF> >0x0D TIF> >0x28 TIF> >0x0D TIF> >0x28 TIF> >0x0D TIF> >0x21 TIF> >0x0D TIF> >0x21 TIF> >0x0D TIF> >0x28 TIF> >0x0D TIF> >0x21 TIF> >0x0D TIF> >0x21 TIF>Found Cortex-M3 r1p1, Little endian. -- CPU_WriteMem(4 bytes @ 0xE0002000) -- CPU_ReadMem(4 bytes @ 0xE000EDF0) -- CPU_WriteMem(4 bytes @ 0xE000EDF0)
 -- CPU_ReadMem(4 bytes @ 0xE0002000)FPUnit: 6 code (BP) slots and 2 literal slots -- CPU_ReadMem(4 bytes @ 0xE000EDFC) -- CPU_WriteMem(4 bytes @ 0xE000EDFC) -- CPU_ReadMem(4 bytes @ 0xE0001000) -- CPU_WriteMem(4 bytes @ 0xE0001000) -- CPU_ReadMem(4 bytes @ 0xE000ED88) -- CPU_WriteMem(4 bytes @ 0xE000ED88) -- CPU_ReadMem(4 bytes @ 0xE000ED88) -- CPU_WriteMem(4 bytes @ 0xE000ED88)CoreSight components:ROMTbl 0 @ E00FF000 -- CPU_ReadMem(16 bytes @ 0xE00FF000) -- CPU_ReadMem(16 bytes @ 0xE000EFF0)
 -- CPU_ReadMem(16 bytes @ 0xE000EFE0)ROMTbl 0 [0]: FFF0F000, CID: B105E00D, PID: 001BB000 SCS -- CPU_ReadMem(16 bytes @ 0xE0001FF0) -- CPU_ReadMem(16 bytes @ 0xE0001FE0)ROMTbl 0 [1]: FFF02000, CID: B105E00D, PID: 001BB002 DWT -- CPU_ReadMem(16 bytes @ 0xE0002FF0) -- CPU_ReadMem(16 bytes @ 0xE0002FE0)ROMTbl 0 [2]: FFF03000, CID: B105E00D, PID: 000BB003 FPB -- CPU_ReadMem(16 bytes @ 0xE0000FF0) -- CPU_ReadMem(16 bytes @ 0xE0000FE0)ROMTbl 0 [3]: FFF01000, CID: B105E00D, PID: 001BB001 ITM
 -- CPU_ReadMem(16 bytes @ 0xE00FF010) -- CPU_ReadMem(16 bytes @ 0xE0040FF0) -- CPU_ReadMem(16 bytes @ 0xE0040FE0)ROMTbl 0 [4]: FFF41000, CID: B105900D, PID: 001BB923 TPIU-Lite -- CPU_ReadMem(16 bytes @ 0xE0041FF0) -- CPU_ReadMem(16 bytes @ 0xE0041FE0)ROMTbl 0 [5]: FFF42000, CID: B105900D, PID: 101BB924 ETM-M3 >0x0D TIF> >0x21 TIF>  returns 0x1BA01477 (0040ms, 0603ms total)
T4184 000:733 JLINK_GetDeviceFamily()  returns 3 (0000ms, 0603ms total)
T4184 000:735 JLINK_ReadMem (0xE00FFFF0, 0x0010 Bytes, ...) -- CPU is running -- CPU_ReadMem(16 bytes @ 0xE00FFFF0) - Data: 0D 00 00 00 10 00 00 00 05 00 00 00 B1 00 00 00  returns 0x00 (0000ms, 0603ms total)
T4184 000:735 JLINK_ReadMem (0xE00FFFD0, 0x0020 Bytes, ...) -- CPU is running -- CPU_ReadMem(32 bytes @ 0xE00FFFD0) - Data: 00 00 00 00 00 00 00 00 00 00 00 00 00 00 00 00 ...  returns 0x00 (0001ms, 0604ms total)
T4184 000:736 JLINK_ReadMem (0xE00FF000, 0x0018 Bytes, ...) -- CPU is running -- CPU_ReadMem(24 bytes @ 0xE00FF000) - Data: 03 F0 F0 FF 03 20 F0 FF 03 30 F0 FF 03 10 F0 FF ...  returns 0x00 (0000ms, 0604ms total)
T4184 000:736 JLINK_ReadMemU32(0xE000ED00, 0x0001 Items, ...) -- CPU is running -- CPU_ReadMem(4 bytes @ 0xE000ED00) - Data: 31 C2 1F 41  returns 0x01 (0001ms, 0605ms total)
T4184 000:737 JLINK_SetResetType(JLINKARM_RESET_TYPE_NORMAL)  returns JLINKARM_RESET_TYPE_NORMAL (0000ms, 0605ms total)
T4184 000:737 JLINK_Reset() -- CPU is running -- CPU_WriteMem(4 bytes @ 0xE000EDF0) -- CPU is running -- CPU_WriteMem(4 bytes @ 0xE000EDFC) >0x35 TIF> -- CPU is running -- CPU_WriteMem(4 bytes @ 0xE000ED0C) -- CPU is running -- CPU_ReadMem(4 bytes @ 0xE000EDF0) -- CPU is running -- CPU_ReadMem(4 bytes @ 0xE000EDF0) -- CPU is running -- CPU_WriteMem(4 bytes @ 0xE000EDF0) -- CPU is running -- CPU_WriteMem(4 bytes @ 0xE000EDFC) -- CPU is running -- CPU_ReadMem(4 bytes @ 0xE000EDF0)
 -- CPU_WriteMem(4 bytes @ 0xE0002000) -- CPU_ReadMem(4 bytes @ 0xE000EDFC) -- CPU_ReadMem(4 bytes @ 0xE0001000) (0016ms, 0621ms total)
T4184 000:753 JLINK_Halt()  returns 0x00 (0000ms, 0621ms total)
T4184 000:753 JLINK_IsHalted()  returns TRUE (0000ms, 0621ms total)
T4184 000:753 JLINK_ReadMemU32(0xE000EDF0, 0x0001 Items, ...) -- CPU_ReadMem(4 bytes @ 0xE000EDF0) - Data: 03 00 03 00  returns 0x01 (0000ms, 0621ms total)
T4184 000:753 JLINK_WriteU32(0xE000EDF0, 0xA05F0003) -- CPU_WriteMem(4 bytes @ 0xE000EDF0)  returns 0x00 (0001ms, 0622ms total)
T4184 000:754 JLINK_WriteU32(0xE000EDFC, 0x01000000) -- CPU_WriteMem(4 bytes @ 0xE000EDFC)  returns 0x00 (0000ms, 0622ms total)
T4184 000:761 JLINK_GetHWStatus(...)  returns 0x00 (0000ms, 0622ms total)
T4184 000:766 JLINK_GetNumBPUnits(Type = 0xFFFFFF00)  returns 0x06 (0000ms, 0622ms total)
T4184 000:766 JLINK_GetNumBPUnits(Type = 0xF0)  returns 0x2000 (0000ms, 0622ms total)
T4184 000:766 JLINK_GetNumWPUnits()  returns 0x04 (0000ms, 0622ms total)
T4184 000:771 JLINK_GetSpeed()  returns 0xFA0 (0000ms, 0622ms total)
T4184 000:776 JLINK_ReadMemU32(0xE000E004, 0x0001 Items, ...) -- CPU_ReadMem(4 bytes @ 0xE000E004) - Data: 01 00 00 00  returns 0x01 (0000ms, 0622ms total)
T4184 000:776 JLINK_ReadMemU32(0xE000E004, 0x0001 Items, ...) -- CPU_ReadMem(4 bytes @ 0xE000E004) - Data: 01 00 00 00  returns 0x01 (0000ms, 0622ms total)
T4184 000:776 JLINK_WriteMem(0xE0001000, 0x001C Bytes, ...) - Data: 01 00 00 00 00 00 00 00 00 00 00 00 00 00 00 00 ... -- CPU_WriteMem(28 bytes @ 0xE0001000)  returns 0x1C (0001ms, 0623ms total)
T4184 000:777 JLINK_ReadMem (0xE0001000, 0x001C Bytes, ...) -- CPU_ReadMem(28 bytes @ 0xE0001000) - Data: 01 00 00 40 00 00 00 00 00 00 00 00 00 00 00 00 ...  returns 0x00 (0001ms, 0624ms total)
T4184 000:778 JLINK_Halt()  returns 0x00 (0000ms, 0624ms total)
T4184 000:778 JLINK_IsHalted()  returns TRUE (0000ms, 0624ms total)
T4184 000:789 JLINK_WriteMem(0x20000000, 0x0164 Bytes, ...) - Data: 00 BE 0A E0 0D 78 2D 06 68 40 08 24 40 00 00 D3 ... -- CPU_WriteMem(356 bytes @ 0x20000000)  returns 0x164 (0003ms, 0627ms total)
T4184 000:792 JLINK_WriteReg(R0, 0x08000000)  returns 0x00 (0000ms, 0627ms total)
T4184 000:792 JLINK_WriteReg(R1, 0x007A1200)  returns 0x00 (0000ms, 0627ms total)
T4184 000:792 JLINK_WriteReg(R2, 0x00000001)  returns 0x00 (0000ms, 0627ms total)
T4184 000:792 JLINK_WriteReg(R3, 0x00000000)  returns 0x00 (0000ms, 0627ms total)
T4184 000:792 JLINK_WriteReg(R4, 0x00000000)  returns 0x00 (0000ms, 0627ms total)
T4184 000:792 JLINK_WriteReg(R5, 0x00000000)  returns 0x00 (0000ms, 0627ms total)
T4184 000:792 JLINK_WriteReg(R6, 0x00000000)  returns 0x00 (0000ms, 0627ms total)
T4184 000:792 JLINK_WriteReg(R7, 0x00000000)  returns 0x00 (0000ms, 0627ms total)
T4184 000:792 JLINK_WriteReg(R8, 0x00000000)  returns 0x00 (0000ms, 0627ms total)
T4184 000:792 JLINK_WriteReg(R9, 0x20000160)  returns 0x00 (0000ms, 0627ms total)
T4184 000:792 JLINK_WriteReg(R10, 0x00000000)  returns 0x00 (0000ms, 0627ms total)
T4184 000:792 JLINK_WriteReg(R11, 0x00000000)  returns 0x00 (0000ms, 0627ms total)
T4184 000:792 JLINK_WriteReg(R12, 0x00000000)  returns 0x00 (0000ms, 0627ms total)
T4184 000:792 JLINK_WriteReg(R13 (SP), 0x20000800)  returns 0x00 (0000ms, 0627ms total)
T4184 000:792 JLINK_WriteReg(R14, 0x20000001)  returns 0x00 (0000ms, 0627ms total)
T4184 000:792 JLINK_WriteReg(R15 (PC), 0x20000038)  returns 0x00 (0000ms, 0627ms total)
T4184 000:792 JLINK_WriteReg(XPSR, 0x01000000)  returns 0x00 (0000ms, 0627ms total)
T4184 000:792 JLINK_WriteReg(MSP, 0x20000800)  returns 0x00 (0000ms, 0627ms total)
T4184 000:792 JLINK_WriteReg(PSP, 0x20000800)  returns 0x00 (0000ms, 0627ms total)
T4184 000:792 JLINK_WriteReg(CFBP, 0x00000000)  returns 0x00 (0000ms, 0627ms total)
T4184 000:792 JLINK_SetBPEx(Addr = 0x20000000, Type = 0xFFFFFFF2) -- CPU_ReadMem(2 bytes @ 0x20000000)  returns 0x00000001 (0000ms, 0627ms total)
T4184 000:792 JLINK_Go() -- CPU_WriteMem(2 bytes @ 0x20000000) -- CPU_ReadMem(4 bytes @ 0xE0001000) -- CPU_WriteMem(4 bytes @ 0xE0002008) -- CPU_WriteMem(4 bytes @ 0xE000200C) -- CPU_WriteMem(4 bytes @ 0xE0002010) -- CPU_WriteMem(4 bytes @ 0xE0002014) -- CPU_WriteMem(4 bytes @ 0xE0002018) -- CPU_WriteMem(4 bytes @ 0xE000201C) -- CPU_WriteMem(4 bytes @ 0xE0001004) (0003ms, 0630ms total)
T4184 000:795 JLINK_IsHalted() -- CPU_ReadMem(2 bytes @ 0x20000000)  returns TRUE (0002ms, 0632ms total)
T4184 000:797 JLINK_ReadReg(R15 (PC))  returns 0x20000000 (0000ms, 0630ms total)
T4184 000:797 JLINK_ClrBPEx(BPHandle = 0x00000001)  returns 0x00 (0000ms, 0630ms total)
T4184 000:797 JLINK_ReadReg(R0)  returns 0x00000000 (0000ms, 0630ms total)
T4184 000:798 JLINK_WriteReg(R0, 0x08000000)  returns 0x00 (0000ms, 0630ms total)
T4184 000:798 JLINK_WriteReg(R1, 0x00000800)  returns 0x00 (0000ms, 0630ms total)
T4184 000:798 JLINK_WriteReg(R2, 0x000000FF)  returns 0x00 (0000ms, 0630ms total)
T4184 000:798 JLINK_WriteReg(R3, 0x00000000)  returns 0x00 (0000ms, 0630ms total)
T4184 000:798 JLINK_WriteReg(R4, 0x00000000)  returns 0x00 (0000ms, 0630ms total)
T4184 000:798 JLINK_WriteReg(R5, 0x00000000)  returns 0x00 (0000ms, 0630ms total)
T4184 000:798 JLINK_WriteReg(R6, 0x00000000)  returns 0x00 (0000ms, 0630ms total)
T4184 000:798 JLINK_WriteReg(R7, 0x00000000)  returns 0x00 (0000ms, 0630ms total)
T4184 000:798 JLINK_WriteReg(R8, 0x00000000)  returns 0x00 (0000ms, 0630ms total)
T4184 000:798 JLINK_WriteReg(R9, 0x20000160)  returns 0x00 (0000ms, 0630ms total)
T4184 000:798 JLINK_WriteReg(R10, 0x00000000)  returns 0x00 (0000ms, 0630ms total)
T4184 000:798 JLINK_WriteReg(R11, 0x00000000)  returns 0x00 (0000ms, 0630ms total)
T4184 000:798 JLINK_WriteReg(R12, 0x00000000)  returns 0x00 (0000ms, 0630ms total)
T4184 000:798 JLINK_WriteReg(R13 (SP), 0x20000800)  returns 0x00 (0000ms, 0630ms total)
T4184 000:798 JLINK_WriteReg(R14, 0x20000001)  returns 0x00 (0000ms, 0630ms total)
T4184 000:798 JLINK_WriteReg(R15 (PC), 0x20000020)  returns 0x00 (0000ms, 0630ms total)
T4184 000:798 JLINK_WriteReg(XPSR, 0x01000000)  returns 0x00 (0000ms, 0630ms total)
T4184 000:798 JLINK_WriteReg(MSP, 0x20000800)  returns 0x00 (0000ms, 0630ms total)
T4184 000:798 JLINK_WriteReg(PSP, 0x20000800)  returns 0x00 (0000ms, 0630ms total)
T4184 000:798 JLINK_WriteReg(CFBP, 0x00000000)  returns 0x00 (0000ms, 0630ms total)
T4184 000:798 JLINK_SetBPEx(Addr = 0x20000000, Type = 0xFFFFFFF2)  returns 0x00000002 (0000ms, 0630ms total)
T4184 000:798 JLINK_Go() -- CPU_ReadMem(4 bytes @ 0xE0001000) (0001ms, 0631ms total)
T4184 000:799 JLINK_IsHalted() -- CPU_ReadMem(2 bytes @ 0x20000000)  returns TRUE (0002ms, 0633ms total)
T4184 000:801 JLINK_ReadReg(R15 (PC))  returns 0x20000000 (0000ms, 0631ms total)
T4184 000:801 JLINK_ClrBPEx(BPHandle = 0x00000002)  returns 0x00 (0000ms, 0631ms total)
T4184 000:801 JLINK_ReadReg(R0)  returns 0x00000001 (0000ms, 0631ms total)
T4184 000:801 JLINK_WriteReg(R0, 0x08000000)  returns 0x00 (0000ms, 0631ms total)
T4184 000:801 JLINK_WriteReg(R1, 0x00000800)  returns 0x00 (0000ms, 0631ms total)
T4184 000:801 JLINK_WriteReg(R2, 0x000000FF)  returns 0x00 (0000ms, 0631ms total)
T4184 000:801 JLINK_WriteReg(R3, 0x00000000)  returns 0x00 (0000ms, 0631ms total)
T4184 000:801 JLINK_WriteReg(R4, 0x00000000)  returns 0x00 (0000ms, 0631ms total)
T4184 000:801 JLINK_WriteReg(R5, 0x00000000)  returns 0x00 (0000ms, 0631ms total)
T4184 000:801 JLINK_WriteReg(R6, 0x00000000)  returns 0x00 (0000ms, 0631ms total)
T4184 000:801 JLINK_WriteReg(R7, 0x00000000)  returns 0x00 (0000ms, 0631ms total)
T4184 000:801 JLINK_WriteReg(R8, 0x00000000)  returns 0x00 (0000ms, 0631ms total)
T4184 000:801 JLINK_WriteReg(R9, 0x20000160)  returns 0x00 (0000ms, 0631ms total)
T4184 000:801 JLINK_WriteReg(R10, 0x00000000)  returns 0x00 (0000ms, 0631ms total)
T4184 000:801 JLINK_WriteReg(R11, 0x00000000)  returns 0x00 (0000ms, 0631ms total)
T4184 000:801 JLINK_WriteReg(R12, 0x00000000)  returns 0x00 (0000ms, 0631ms total)
T4184 000:801 JLINK_WriteReg(R13 (SP), 0x20000800)  returns 0x00 (0000ms, 0631ms total)
T4184 000:801 JLINK_WriteReg(R14, 0x20000001)  returns 0x00 (0000ms, 0631ms total)
T4184 000:801 JLINK_WriteReg(R15 (PC), 0x200000B6)  returns 0x00 (0000ms, 0631ms total)
T4184 000:801 JLINK_WriteReg(XPSR, 0x01000000)  returns 0x00 (0000ms, 0631ms total)
T4184 000:801 JLINK_WriteReg(MSP, 0x20000800)  returns 0x00 (0000ms, 0631ms total)
T4184 000:801 JLINK_WriteReg(PSP, 0x20000800)  returns 0x00 (0000ms, 0631ms total)
T4184 000:801 JLINK_WriteReg(CFBP, 0x00000000)  returns 0x00 (0000ms, 0631ms total)
T4184 000:801 JLINK_SetBPEx(Addr = 0x20000000, Type = 0xFFFFFFF2)  returns 0x00000003 (0000ms, 0631ms total)
T4184 000:801 JLINK_Go() -- CPU_ReadMem(4 bytes @ 0xE0001000) (0001ms, 0632ms total)
T4184 000:802 JLINK_IsHalted()  returns FALSE (0000ms, 0632ms total)
T4184 000:876 JLINK_IsHalted() -- CPU_ReadMem(2 bytes @ 0x20000000)  returns TRUE (0002ms, 0634ms total)
T4184 000:878 JLINK_ReadReg(R15 (PC))  returns 0x20000000 (0000ms, 0632ms total)
T4184 000:878 JLINK_ClrBPEx(BPHandle = 0x00000003)  returns 0x00 (0000ms, 0632ms total)
T4184 000:878 JLINK_ReadReg(R0)  returns 0x00000000 (0000ms, 0632ms total)
T4184 000:878 JLINK_WriteReg(R0, 0x08000800)  returns 0x00 (0000ms, 0632ms total)
T4184 000:878 JLINK_WriteReg(R1, 0x00000800)  returns 0x00 (0000ms, 0632ms total)
T4184 000:878 JLINK_WriteReg(R2, 0x000000FF)  returns 0x00 (0000ms, 0632ms total)
T4184 000:878 JLINK_WriteReg(R3, 0x00000000)  returns 0x00 (0000ms, 0632ms total)
T4184 000:878 JLINK_WriteReg(R4, 0x00000000)  returns 0x00 (0000ms, 0632ms total)
T4184 000:878 JLINK_WriteReg(R5, 0x00000000)  returns 0x00 (0000ms, 0632ms total)
T4184 000:878 JLINK_WriteReg(R6, 0x00000000)  returns 0x00 (0000ms, 0632ms total)
T4184 000:878 JLINK_WriteReg(R7, 0x00000000)  returns 0x00 (0000ms, 0632ms total)
T4184 000:878 JLINK_WriteReg(R8, 0x00000000)  returns 0x00 (0000ms, 0632ms total)
T4184 000:878 JLINK_WriteReg(R9, 0x20000160)  returns 0x00 (0001ms, 0633ms total)
T4184 000:879 JLINK_WriteReg(R10, 0x00000000)  returns 0x00 (0000ms, 0633ms total)
T4184 000:879 JLINK_WriteReg(R11, 0x00000000)  returns 0x00 (0000ms, 0633ms total)
T4184 000:879 JLINK_WriteReg(R12, 0x00000000)  returns 0x00 (0000ms, 0633ms total)
T4184 000:879 JLINK_WriteReg(R13 (SP), 0x20000800)  returns 0x00 (0000ms, 0633ms total)
T4184 000:879 JLINK_WriteReg(R14, 0x20000001)  returns 0x00 (0000ms, 0633ms total)
T4184 000:879 JLINK_WriteReg(R15 (PC), 0x20000020)  returns 0x00 (0000ms, 0633ms total)
T4184 000:879 JLINK_WriteReg(XPSR, 0x01000000)  returns 0x00 (0000ms, 0633ms total)
T4184 000:879 JLINK_WriteReg(MSP, 0x20000800)  returns 0x00 (0000ms, 0633ms total)
T4184 000:879 JLINK_WriteReg(PSP, 0x20000800)  returns 0x00 (0000ms, 0633ms total)
T4184 000:879 JLINK_WriteReg(CFBP, 0x00000000)  returns 0x00 (0000ms, 0633ms total)
T4184 000:879 JLINK_SetBPEx(Addr = 0x20000000, Type = 0xFFFFFFF2)  returns 0x00000004 (0000ms, 0633ms total)
T4184 000:879 JLINK_Go() -- CPU_ReadMem(4 bytes @ 0xE0001000) (0001ms, 0634ms total)
T4184 000:880 JLINK_IsHalted() -- CPU_ReadMem(2 bytes @ 0x20000000)  returns TRUE (0002ms, 0636ms total)
T4184 000:882 JLINK_ReadReg(R15 (PC))  returns 0x20000000 (0000ms, 0634ms total)
T4184 000:882 JLINK_ClrBPEx(BPHandle = 0x00000004)  returns 0x00 (0000ms, 0634ms total)
T4184 000:882 JLINK_ReadReg(R0)  returns 0x00000001 (0000ms, 0634ms total)
T4184 000:882 JLINK_WriteReg(R0, 0x08000800)  returns 0x00 (0000ms, 0634ms total)
T4184 000:882 JLINK_WriteReg(R1, 0x00000800)  returns 0x00 (0000ms, 0634ms total)
T4184 000:882 JLINK_WriteReg(R2, 0x000000FF)  returns 0x00 (0000ms, 0634ms total)
T4184 000:882 JLINK_WriteReg(R3, 0x00000000)  returns 0x00 (0000ms, 0634ms total)
T4184 000:882 JLINK_WriteReg(R4, 0x00000000)  returns 0x00 (0000ms, 0634ms total)
T4184 000:882 JLINK_WriteReg(R5, 0x00000000)  returns 0x00 (0000ms, 0634ms total)
T4184 000:882 JLINK_WriteReg(R6, 0x00000000)  returns 0x00 (0000ms, 0634ms total)
T4184 000:882 JLINK_WriteReg(R7, 0x00000000)  returns 0x00 (0000ms, 0634ms total)
T4184 000:882 JLINK_WriteReg(R8, 0x00000000)  returns 0x00 (0000ms, 0634ms total)
T4184 000:882 JLINK_WriteReg(R9, 0x20000160)  returns 0x00 (0000ms, 0634ms total)
T4184 000:882 JLINK_WriteReg(R10, 0x00000000)  returns 0x00 (0000ms, 0634ms total)
T4184 000:882 JLINK_WriteReg(R11, 0x00000000)  returns 0x00 (0000ms, 0634ms total)
T4184 000:882 JLINK_WriteReg(R12, 0x00000000)  returns 0x00 (0000ms, 0634ms total)
T4184 000:882 JLINK_WriteReg(R13 (SP), 0x20000800)  returns 0x00 (0000ms, 0634ms total)
T4184 000:882 JLINK_WriteReg(R14, 0x20000001)  returns 0x00 (0000ms, 0634ms total)
T4184 000:882 JLINK_WriteReg(R15 (PC), 0x200000B6)  returns 0x00 (0000ms, 0634ms total)
T4184 000:882 JLINK_WriteReg(XPSR, 0x01000000)  returns 0x00 (0000ms, 0634ms total)
T4184 000:882 JLINK_WriteReg(MSP, 0x20000800)  returns 0x00 (0000ms, 0634ms total)
T4184 000:882 JLINK_WriteReg(PSP, 0x20000800)  returns 0x00 (0000ms, 0634ms total)
T4184 000:882 JLINK_WriteReg(CFBP, 0x00000000)  returns 0x00 (0000ms, 0634ms total)
T4184 000:882 JLINK_SetBPEx(Addr = 0x20000000, Type = 0xFFFFFFF2)  returns 0x00000005 (0000ms, 0634ms total)
T4184 000:882 JLINK_Go() -- CPU_ReadMem(4 bytes @ 0xE0001000) (0001ms, 0635ms total)
T4184 000:883 JLINK_IsHalted()  returns FALSE (0000ms, 0635ms total)
T4184 000:885 JLINK_IsHalted()  returns FALSE (0000ms, 0635ms total)
T4184 000:887 JLINK_IsHalted()  returns FALSE (0000ms, 0635ms total)
T4184 000:889 JLINK_IsHalted()  returns FALSE (0000ms, 0635ms total)
T4184 000:891 JLINK_IsHalted()  returns FALSE (0000ms, 0635ms total)
T4184 000:893 JLINK_IsHalted()  returns FALSE (0000ms, 0635ms total)
T4184 000:895 JLINK_IsHalted()  returns FALSE (0000ms, 0635ms total)
T4184 000:897 JLINK_IsHalted()  returns FALSE (0000ms, 0635ms total)
T4184 000:899 JLINK_IsHalted()  returns FALSE (0000ms, 0635ms total)
T4184 000:901 JLINK_IsHalted()  returns FALSE (0000ms, 0635ms total)
T4184 000:903 JLINK_IsHalted()  returns FALSE (0000ms, 0635ms total)
T4184 000:905 JLINK_IsHalted()  returns FALSE (0000ms, 0635ms total)
T4184 000:907 JLINK_IsHalted() -- CPU_ReadMem(2 bytes @ 0x20000000)  returns TRUE (0001ms, 0636ms total)
T4184 000:908 JLINK_ReadReg(R15 (PC))  returns 0x20000000 (0000ms, 0635ms total)
T4184 000:908 JLINK_ClrBPEx(BPHandle = 0x00000005)  returns 0x00 (0001ms, 0636ms total)
T4184 000:909 JLINK_ReadReg(R0)  returns 0x00000000 (0000ms, 0636ms total)
T4184 000:909 JLINK_WriteReg(R0, 0x08001000)  returns 0x00 (0000ms, 0636ms total)
T4184 000:909 JLINK_WriteReg(R1, 0x00000800)  returns 0x00 (0000ms, 0636ms total)
T4184 000:909 JLINK_WriteReg(R2, 0x000000FF)  returns 0x00 (0000ms, 0636ms total)
T4184 000:909 JLINK_WriteReg(R3, 0x00000000)  returns 0x00 (0000ms, 0636ms total)
T4184 000:909 JLINK_WriteReg(R4, 0x00000000)  returns 0x00 (0000ms, 0636ms total)
T4184 000:909 JLINK_WriteReg(R5, 0x00000000)  returns 0x00 (0000ms, 0636ms total)
T4184 000:909 JLINK_WriteReg(R6, 0x00000000)  returns 0x00 (0000ms, 0636ms total)
T4184 000:909 JLINK_WriteReg(R7, 0x00000000)  returns 0x00 (0000ms, 0636ms total)
T4184 000:909 JLINK_WriteReg(R8, 0x00000000)  returns 0x00 (0000ms, 0636ms total)
T4184 000:909 JLINK_WriteReg(R9, 0x20000160)  returns 0x00 (0000ms, 0636ms total)
T4184 000:909 JLINK_WriteReg(R10, 0x00000000)  returns 0x00 (0000ms, 0636ms total)
T4184 000:909 JLINK_WriteReg(R11, 0x00000000)  returns 0x00 (0000ms, 0636ms total)
T4184 000:909 JLINK_WriteReg(R12, 0x00000000)  returns 0x00 (0000ms, 0636ms total)
T4184 000:909 JLINK_WriteReg(R13 (SP), 0x20000800)  returns 0x00 (0000ms, 0636ms total)
T4184 000:909 JLINK_WriteReg(R14, 0x20000001)  returns 0x00 (0000ms, 0636ms total)
T4184 000:909 JLINK_WriteReg(R15 (PC), 0x20000020)  returns 0x00 (0000ms, 0636ms total)
T4184 000:909 JLINK_WriteReg(XPSR, 0x01000000)  returns 0x00 (0000ms, 0636ms total)
T4184 000:909 JLINK_WriteReg(MSP, 0x20000800)  returns 0x00 (0000ms, 0636ms total)
T4184 000:909 JLINK_WriteReg(PSP, 0x20000800)  returns 0x00 (0000ms, 0636ms total)
T4184 000:909 JLINK_WriteReg(CFBP, 0x00000000)  returns 0x00 (0000ms, 0636ms total)
T4184 000:909 JLINK_SetBPEx(Addr = 0x20000000, Type = 0xFFFFFFF2)  returns 0x00000006 (0000ms, 0636ms total)
T4184 000:909 JLINK_Go() -- CPU_ReadMem(4 bytes @ 0xE0001000) (0001ms, 0637ms total)
T4184 000:910 JLINK_IsHalted() -- CPU_ReadMem(2 bytes @ 0x20000000)  returns TRUE (0002ms, 0639ms total)
T4184 000:912 JLINK_ReadReg(R15 (PC))  returns 0x20000000 (0000ms, 0637ms total)
T4184 000:912 JLINK_ClrBPEx(BPHandle = 0x00000006)  returns 0x00 (0000ms, 0637ms total)
T4184 000:912 JLINK_ReadReg(R0)  returns 0x00000001 (0000ms, 0637ms total)
T4184 000:912 JLINK_WriteReg(R0, 0x08001000)  returns 0x00 (0000ms, 0637ms total)
T4184 000:912 JLINK_WriteReg(R1, 0x00000800)  returns 0x00 (0000ms, 0637ms total)
T4184 000:912 JLINK_WriteReg(R2, 0x000000FF)  returns 0x00 (0000ms, 0637ms total)
T4184 000:912 JLINK_WriteReg(R3, 0x00000000)  returns 0x00 (0000ms, 0637ms total)
T4184 000:912 JLINK_WriteReg(R4, 0x00000000)  returns 0x00 (0000ms, 0637ms total)
T4184 000:912 JLINK_WriteReg(R5, 0x00000000)  returns 0x00 (0000ms, 0637ms total)
T4184 000:912 JLINK_WriteReg(R6, 0x00000000)  returns 0x00 (0000ms, 0637ms total)
T4184 000:912 JLINK_WriteReg(R7, 0x00000000)  returns 0x00 (0000ms, 0637ms total)
T4184 000:912 JLINK_WriteReg(R8, 0x00000000)  returns 0x00 (0000ms, 0637ms total)
T4184 000:912 JLINK_WriteReg(R9, 0x20000160)  returns 0x00 (0000ms, 0637ms total)
T4184 000:912 JLINK_WriteReg(R10, 0x00000000)  returns 0x00 (0000ms, 0637ms total)
T4184 000:912 JLINK_WriteReg(R11, 0x00000000)  returns 0x00 (0000ms, 0637ms total)
T4184 000:912 JLINK_WriteReg(R12, 0x00000000)  returns 0x00 (0000ms, 0637ms total)
T4184 000:912 JLINK_WriteReg(R13 (SP), 0x20000800)  returns 0x00 (0000ms, 0637ms total)
T4184 000:912 JLINK_WriteReg(R14, 0x20000001)  returns 0x00 (0000ms, 0637ms total)
T4184 000:912 JLINK_WriteReg(R15 (PC), 0x200000B6)  returns 0x00 (0000ms, 0637ms total)
T4184 000:912 JLINK_WriteReg(XPSR, 0x01000000)  returns 0x00 (0000ms, 0637ms total)
T4184 000:912 JLINK_WriteReg(MSP, 0x20000800)  returns 0x00 (0000ms, 0637ms total)
T4184 000:912 JLINK_WriteReg(PSP, 0x20000800)  returns 0x00 (0000ms, 0637ms total)
T4184 000:912 JLINK_WriteReg(CFBP, 0x00000000)  returns 0x00 (0000ms, 0637ms total)
T4184 000:912 JLINK_SetBPEx(Addr = 0x20000000, Type = 0xFFFFFFF2)  returns 0x00000007 (0000ms, 0637ms total)
T4184 000:912 JLINK_Go() -- CPU_ReadMem(4 bytes @ 0xE0001000) (0001ms, 0638ms total)
T4184 000:913 JLINK_IsHalted()  returns FALSE (0000ms, 0638ms total)
T4184 000:918 JLINK_IsHalted()  returns FALSE (0000ms, 0638ms total)
T4184 000:920 JLINK_IsHalted()  returns FALSE (0000ms, 0638ms total)
T4184 000:922 JLINK_IsHalted()  returns FALSE (0000ms, 0638ms total)
T4184 000:924 JLINK_IsHalted()  returns FALSE (0000ms, 0638ms total)
T4184 000:926 JLINK_IsHalted()  returns FALSE (0000ms, 0638ms total)
T4184 000:932 JLINK_IsHalted()  returns FALSE (0000ms, 0638ms total)
T4184 000:934 JLINK_IsHalted()  returns FALSE (0000ms, 0638ms total)
T4184 000:936 JLINK_IsHalted() -- CPU_ReadMem(2 bytes @ 0x20000000)  returns TRUE (0001ms, 0639ms total)
T4184 000:937 JLINK_ReadReg(R15 (PC))  returns 0x20000000 (0000ms, 0638ms total)
T4184 000:937 JLINK_ClrBPEx(BPHandle = 0x00000007)  returns 0x00 (0000ms, 0638ms total)
T4184 000:937 JLINK_ReadReg(R0)  returns 0x00000000 (0000ms, 0638ms total)
T4184 000:938 JLINK_WriteReg(R0, 0x08001800)  returns 0x00 (0000ms, 0638ms total)
T4184 000:938 JLINK_WriteReg(R1, 0x00000800)  returns 0x00 (0000ms, 0638ms total)
T4184 000:938 JLINK_WriteReg(R2, 0x000000FF)  returns 0x00 (0000ms, 0638ms total)
T4184 000:938 JLINK_WriteReg(R3, 0x00000000)  returns 0x00 (0000ms, 0638ms total)
T4184 000:938 JLINK_WriteReg(R4, 0x00000000)  returns 0x00 (0000ms, 0638ms total)
T4184 000:938 JLINK_WriteReg(R5, 0x00000000)  returns 0x00 (0000ms, 0638ms total)
T4184 000:938 JLINK_WriteReg(R6, 0x00000000)  returns 0x00 (0000ms, 0638ms total)
T4184 000:938 JLINK_WriteReg(R7, 0x00000000)  returns 0x00 (0000ms, 0638ms total)
T4184 000:938 JLINK_WriteReg(R8, 0x00000000)  returns 0x00 (0000ms, 0638ms total)
T4184 000:938 JLINK_WriteReg(R9, 0x20000160)  returns 0x00 (0000ms, 0638ms total)
T4184 000:938 JLINK_WriteReg(R10, 0x00000000)  returns 0x00 (0000ms, 0638ms total)
T4184 000:938 JLINK_WriteReg(R11, 0x00000000)  returns 0x00 (0000ms, 0638ms total)
T4184 000:938 JLINK_WriteReg(R12, 0x00000000)  returns 0x00 (0000ms, 0638ms total)
T4184 000:938 JLINK_WriteReg(R13 (SP), 0x20000800)  returns 0x00 (0000ms, 0638ms total)
T4184 000:938 JLINK_WriteReg(R14, 0x20000001)  returns 0x00 (0000ms, 0638ms total)
T4184 000:938 JLINK_WriteReg(R15 (PC), 0x20000020)  returns 0x00 (0000ms, 0638ms total)
T4184 000:938 JLINK_WriteReg(XPSR, 0x01000000)  returns 0x00 (0000ms, 0638ms total)
T4184 000:938 JLINK_WriteReg(MSP, 0x20000800)  returns 0x00 (0000ms, 0638ms total)
T4184 000:938 JLINK_WriteReg(PSP, 0x20000800)  returns 0x00 (0000ms, 0638ms total)
T4184 000:938 JLINK_WriteReg(CFBP, 0x00000000)  returns 0x00 (0000ms, 0638ms total)
T4184 000:938 JLINK_SetBPEx(Addr = 0x20000000, Type = 0xFFFFFFF2)  returns 0x00000008 (0000ms, 0638ms total)
T4184 000:938 JLINK_Go() -- CPU_ReadMem(4 bytes @ 0xE0001000) (0001ms, 0639ms total)
T4184 000:939 JLINK_IsHalted() -- CPU_ReadMem(2 bytes @ 0x20000000)  returns TRUE (0002ms, 0641ms total)
T4184 000:941 JLINK_ReadReg(R15 (PC))  returns 0x20000000 (0000ms, 0639ms total)
T4184 000:941 JLINK_ClrBPEx(BPHandle = 0x00000008)  returns 0x00 (0000ms, 0639ms total)
T4184 000:941 JLINK_ReadReg(R0)  returns 0x00000001 (0000ms, 0639ms total)
T4184 000:941 JLINK_WriteReg(R0, 0x08001800)  returns 0x00 (0000ms, 0639ms total)
T4184 000:941 JLINK_WriteReg(R1, 0x00000800)  returns 0x00 (0000ms, 0639ms total)
T4184 000:941 JLINK_WriteReg(R2, 0x000000FF)  returns 0x00 (0000ms, 0639ms total)
T4184 000:941 JLINK_WriteReg(R3, 0x00000000)  returns 0x00 (0000ms, 0639ms total)
T4184 000:941 JLINK_WriteReg(R4, 0x00000000)  returns 0x00 (0000ms, 0639ms total)
T4184 000:941 JLINK_WriteReg(R5, 0x00000000)  returns 0x00 (0000ms, 0639ms total)
T4184 000:941 JLINK_WriteReg(R6, 0x00000000)  returns 0x00 (0000ms, 0639ms total)
T4184 000:941 JLINK_WriteReg(R7, 0x00000000)  returns 0x00 (0000ms, 0639ms total)
T4184 000:941 JLINK_WriteReg(R8, 0x00000000)  returns 0x00 (0000ms, 0639ms total)
T4184 000:941 JLINK_WriteReg(R9, 0x20000160)  returns 0x00 (0000ms, 0639ms total)
T4184 000:941 JLINK_WriteReg(R10, 0x00000000)  returns 0x00 (0000ms, 0639ms total)
T4184 000:941 JLINK_WriteReg(R11, 0x00000000)  returns 0x00 (0000ms, 0639ms total)
T4184 000:941 JLINK_WriteReg(R12, 0x00000000)  returns 0x00 (0000ms, 0639ms total)
T4184 000:941 JLINK_WriteReg(R13 (SP), 0x20000800)  returns 0x00 (0000ms, 0639ms total)
T4184 000:941 JLINK_WriteReg(R14, 0x20000001)  returns 0x00 (0001ms, 0640ms total)
T4184 000:942 JLINK_WriteReg(R15 (PC), 0x200000B6)  returns 0x00 (0000ms, 0640ms total)
T4184 000:942 JLINK_WriteReg(XPSR, 0x01000000)  returns 0x00 (0000ms, 0640ms total)
T4184 000:942 JLINK_WriteReg(MSP, 0x20000800)  returns 0x00 (0000ms, 0640ms total)
T4184 000:942 JLINK_WriteReg(PSP, 0x20000800)  returns 0x00 (0000ms, 0640ms total)
T4184 000:942 JLINK_WriteReg(CFBP, 0x00000000)  returns 0x00 (0000ms, 0640ms total)
T4184 000:942 JLINK_SetBPEx(Addr = 0x20000000, Type = 0xFFFFFFF2)  returns 0x00000009 (0000ms, 0640ms total)
T4184 000:942 JLINK_Go() -- CPU_ReadMem(4 bytes @ 0xE0001000) (0001ms, 0641ms total)
T4184 000:943 JLINK_IsHalted()  returns FALSE (0000ms, 0641ms total)
T4184 000:945 JLINK_IsHalted()  returns FALSE (0000ms, 0641ms total)
T4184 000:947 JLINK_IsHalted()  returns FALSE (0000ms, 0641ms total)
T4184 000:949 JLINK_IsHalted()  returns FALSE (0000ms, 0641ms total)
T4184 000:951 JLINK_IsHalted()  returns FALSE (0000ms, 0641ms total)
T4184 000:953 JLINK_IsHalted()  returns FALSE (0000ms, 0641ms total)
T4184 000:955 JLINK_IsHalted()  returns FALSE (0000ms, 0641ms total)
T4184 000:957 JLINK_IsHalted()  returns FALSE (0000ms, 0641ms total)
T4184 000:959 JLINK_IsHalted()  returns FALSE (0000ms, 0641ms total)
T4184 000:977 JLINK_IsHalted() -- CPU_ReadMem(2 bytes @ 0x20000000)  returns TRUE (0001ms, 0642ms total)
T4184 000:978 JLINK_ReadReg(R15 (PC))  returns 0x20000000 (0000ms, 0641ms total)
T4184 000:978 JLINK_ClrBPEx(BPHandle = 0x00000009)  returns 0x00 (0000ms, 0641ms total)
T4184 000:978 JLINK_ReadReg(R0)  returns 0x00000000 (0001ms, 0642ms total)
T4184 000:979 JLINK_WriteReg(R0, 0x08002000)  returns 0x00 (0000ms, 0642ms total)
T4184 000:979 JLINK_WriteReg(R1, 0x00000800)  returns 0x00 (0000ms, 0642ms total)
T4184 000:979 JLINK_WriteReg(R2, 0x000000FF)  returns 0x00 (0000ms, 0642ms total)
T4184 000:979 JLINK_WriteReg(R3, 0x00000000)  returns 0x00 (0000ms, 0642ms total)
T4184 000:979 JLINK_WriteReg(R4, 0x00000000)  returns 0x00 (0000ms, 0642ms total)
T4184 000:979 JLINK_WriteReg(R5, 0x00000000)  returns 0x00 (0000ms, 0642ms total)
T4184 000:979 JLINK_WriteReg(R6, 0x00000000)  returns 0x00 (0000ms, 0642ms total)
T4184 000:979 JLINK_WriteReg(R7, 0x00000000)  returns 0x00 (0000ms, 0642ms total)
T4184 000:979 JLINK_WriteReg(R8, 0x00000000)  returns 0x00 (0000ms, 0642ms total)
T4184 000:979 JLINK_WriteReg(R9, 0x20000160)  returns 0x00 (0000ms, 0642ms total)
T4184 000:979 JLINK_WriteReg(R10, 0x00000000)  returns 0x00 (0000ms, 0642ms total)
T4184 000:979 JLINK_WriteReg(R11, 0x00000000)  returns 0x00 (0000ms, 0642ms total)
T4184 000:979 JLINK_WriteReg(R12, 0x00000000)  returns 0x00 (0000ms, 0642ms total)
T4184 000:979 JLINK_WriteReg(R13 (SP), 0x20000800)  returns 0x00 (0000ms, 0642ms total)
T4184 000:979 JLINK_WriteReg(R14, 0x20000001)  returns 0x00 (0000ms, 0642ms total)
T4184 000:979 JLINK_WriteReg(R15 (PC), 0x20000020)  returns 0x00 (0000ms, 0642ms total)
T4184 000:979 JLINK_WriteReg(XPSR, 0x01000000)  returns 0x00 (0000ms, 0642ms total)
T4184 000:979 JLINK_WriteReg(MSP, 0x20000800)  returns 0x00 (0000ms, 0642ms total)
T4184 000:979 JLINK_WriteReg(PSP, 0x20000800)  returns 0x00 (0000ms, 0642ms total)
T4184 000:979 JLINK_WriteReg(CFBP, 0x00000000)  returns 0x00 (0000ms, 0642ms total)
T4184 000:979 JLINK_SetBPEx(Addr = 0x20000000, Type = 0xFFFFFFF2)  returns 0x0000000A (0000ms, 0642ms total)
T4184 000:979 JLINK_Go() -- CPU_ReadMem(4 bytes @ 0xE0001000) (0001ms, 0643ms total)
T4184 000:981 JLINK_IsHalted() -- CPU_ReadMem(2 bytes @ 0x20000000)  returns TRUE (0001ms, 0645ms total)
T4184 000:982 JLINK_ReadReg(R15 (PC))  returns 0x20000000 (0000ms, 0644ms total)
T4184 000:982 JLINK_ClrBPEx(BPHandle = 0x0000000A)  returns 0x00 (0000ms, 0644ms total)
T4184 000:982 JLINK_ReadReg(R0)  returns 0x00000001 (0000ms, 0644ms total)
T4184 000:982 JLINK_WriteReg(R0, 0x08002000)  returns 0x00 (0000ms, 0644ms total)
T4184 000:982 JLINK_WriteReg(R1, 0x00000800)  returns 0x00 (0000ms, 0644ms total)
T4184 000:982 JLINK_WriteReg(R2, 0x000000FF)  returns 0x00 (0000ms, 0644ms total)
T4184 000:982 JLINK_WriteReg(R3, 0x00000000)  returns 0x00 (0000ms, 0644ms total)
T4184 000:982 JLINK_WriteReg(R4, 0x00000000)  returns 0x00 (0000ms, 0644ms total)
T4184 000:982 JLINK_WriteReg(R5, 0x00000000)  returns 0x00 (0000ms, 0644ms total)
T4184 000:982 JLINK_WriteReg(R6, 0x00000000)  returns 0x00 (0000ms, 0644ms total)
T4184 000:982 JLINK_WriteReg(R7, 0x00000000)  returns 0x00 (0000ms, 0644ms total)
T4184 000:982 JLINK_WriteReg(R8, 0x00000000)  returns 0x00 (0000ms, 0644ms total)
T4184 000:982 JLINK_WriteReg(R9, 0x20000160)  returns 0x00 (0000ms, 0644ms total)
T4184 000:982 JLINK_WriteReg(R10, 0x00000000)  returns 0x00 (0000ms, 0644ms total)
T4184 000:982 JLINK_WriteReg(R11, 0x00000000)  returns 0x00 (0000ms, 0644ms total)
T4184 000:982 JLINK_WriteReg(R12, 0x00000000)  returns 0x00 (0000ms, 0644ms total)
T4184 000:982 JLINK_WriteReg(R13 (SP), 0x20000800)  returns 0x00 (0000ms, 0644ms total)
T4184 000:982 JLINK_WriteReg(R14, 0x20000001)  returns 0x00 (0001ms, 0645ms total)
T4184 000:983 JLINK_WriteReg(R15 (PC), 0x200000B6)  returns 0x00 (0000ms, 0645ms total)
T4184 000:983 JLINK_WriteReg(XPSR, 0x01000000)  returns 0x00 (0000ms, 0645ms total)
T4184 000:983 JLINK_WriteReg(MSP, 0x20000800)  returns 0x00 (0000ms, 0645ms total)
T4184 000:983 JLINK_WriteReg(PSP, 0x20000800)  returns 0x00 (0000ms, 0645ms total)
T4184 000:983 JLINK_WriteReg(CFBP, 0x00000000)  returns 0x00 (0000ms, 0645ms total)
T4184 000:983 JLINK_SetBPEx(Addr = 0x20000000, Type = 0xFFFFFFF2)  returns 0x0000000B (0000ms, 0645ms total)
T4184 000:983 JLINK_Go() -- CPU_ReadMem(4 bytes @ 0xE0001000) (0001ms, 0646ms total)
T4184 000:984 JLINK_IsHalted()  returns FALSE (0000ms, 0646ms total)
T4184 000:986 JLINK_IsHalted()  returns FALSE (0000ms, 0646ms total)
T4184 000:988 JLINK_IsHalted()  returns FALSE (0000ms, 0646ms total)
T4184 000:992 JLINK_IsHalted()  returns FALSE (0000ms, 0646ms total)
T4184 000:994 JLINK_IsHalted()  returns FALSE (0000ms, 0646ms total)
T4184 000:996 JLINK_IsHalted()  returns FALSE (0000ms, 0646ms total)
T4184 000:998 JLINK_IsHalted()  returns FALSE (0000ms, 0646ms total)
T4184 001:000 JLINK_IsHalted()  returns FALSE (0000ms, 0646ms total)
T4184 001:002 JLINK_IsHalted()  returns FALSE (0001ms, 0647ms total)
T4184 001:005 JLINK_IsHalted()  returns FALSE (0000ms, 0646ms total)
T4184 001:007 JLINK_IsHalted() -- CPU_ReadMem(2 bytes @ 0x20000000)  returns TRUE (0001ms, 0647ms total)
T4184 001:008 JLINK_ReadReg(R15 (PC))  returns 0x20000000 (0000ms, 0646ms total)
T4184 001:008 JLINK_ClrBPEx(BPHandle = 0x0000000B)  returns 0x00 (0000ms, 0646ms total)
T4184 001:008 JLINK_ReadReg(R0)  returns 0x00000000 (0000ms, 0646ms total)
T4184 001:009 JLINK_WriteReg(R0, 0x08002800)  returns 0x00 (0000ms, 0646ms total)
T4184 001:009 JLINK_WriteReg(R1, 0x00000800)  returns 0x00 (0000ms, 0646ms total)
T4184 001:009 JLINK_WriteReg(R2, 0x000000FF)  returns 0x00 (0000ms, 0646ms total)
T4184 001:009 JLINK_WriteReg(R3, 0x00000000)  returns 0x00 (0000ms, 0646ms total)
T4184 001:009 JLINK_WriteReg(R4, 0x00000000)  returns 0x00 (0000ms, 0646ms total)
T4184 001:009 JLINK_WriteReg(R5, 0x00000000)  returns 0x00 (0000ms, 0646ms total)
T4184 001:009 JLINK_WriteReg(R6, 0x00000000)  returns 0x00 (0000ms, 0646ms total)
T4184 001:009 JLINK_WriteReg(R7, 0x00000000)  returns 0x00 (0000ms, 0646ms total)
T4184 001:009 JLINK_WriteReg(R8, 0x00000000)  returns 0x00 (0000ms, 0646ms total)
T4184 001:009 JLINK_WriteReg(R9, 0x20000160)  returns 0x00 (0000ms, 0646ms total)
T4184 001:009 JLINK_WriteReg(R10, 0x00000000)  returns 0x00 (0000ms, 0646ms total)
T4184 001:009 JLINK_WriteReg(R11, 0x00000000)  returns 0x00 (0000ms, 0646ms total)
T4184 001:009 JLINK_WriteReg(R12, 0x00000000)  returns 0x00 (0000ms, 0646ms total)
T4184 001:009 JLINK_WriteReg(R13 (SP), 0x20000800)  returns 0x00 (0000ms, 0646ms total)
T4184 001:009 JLINK_WriteReg(R14, 0x20000001)  returns 0x00 (0000ms, 0646ms total)
T4184 001:009 JLINK_WriteReg(R15 (PC), 0x20000020)  returns 0x00 (0000ms, 0646ms total)
T4184 001:009 JLINK_WriteReg(XPSR, 0x01000000)  returns 0x00 (0000ms, 0646ms total)
T4184 001:009 JLINK_WriteReg(MSP, 0x20000800)  returns 0x00 (0000ms, 0646ms total)
T4184 001:009 JLINK_WriteReg(PSP, 0x20000800)  returns 0x00 (0000ms, 0646ms total)
T4184 001:009 JLINK_WriteReg(CFBP, 0x00000000)  returns 0x00 (0000ms, 0646ms total)
T4184 001:009 JLINK_SetBPEx(Addr = 0x20000000, Type = 0xFFFFFFF2)  returns 0x0000000C (0000ms, 0646ms total)
T4184 001:009 JLINK_Go() -- CPU_ReadMem(4 bytes @ 0xE0001000) (0001ms, 0647ms total)
T4184 001:010 JLINK_IsHalted() -- CPU_ReadMem(2 bytes @ 0x20000000)  returns TRUE (0002ms, 0649ms total)
T4184 001:012 JLINK_ReadReg(R15 (PC))  returns 0x20000000 (0000ms, 0647ms total)
T4184 001:012 JLINK_ClrBPEx(BPHandle = 0x0000000C)  returns 0x00 (0000ms, 0647ms total)
T4184 001:012 JLINK_ReadReg(R0)  returns 0x00000001 (0000ms, 0647ms total)
T4184 001:012 JLINK_WriteReg(R0, 0x08002800)  returns 0x00 (0000ms, 0647ms total)
T4184 001:012 JLINK_WriteReg(R1, 0x00000800)  returns 0x00 (0000ms, 0647ms total)
T4184 001:012 JLINK_WriteReg(R2, 0x000000FF)  returns 0x00 (0000ms, 0647ms total)
T4184 001:012 JLINK_WriteReg(R3, 0x00000000)  returns 0x00 (0000ms, 0647ms total)
T4184 001:012 JLINK_WriteReg(R4, 0x00000000)  returns 0x00 (0000ms, 0647ms total)
T4184 001:012 JLINK_WriteReg(R5, 0x00000000)  returns 0x00 (0000ms, 0647ms total)
T4184 001:012 JLINK_WriteReg(R6, 0x00000000)  returns 0x00 (0000ms, 0647ms total)
T4184 001:012 JLINK_WriteReg(R7, 0x00000000)  returns 0x00 (0000ms, 0647ms total)
T4184 001:012 JLINK_WriteReg(R8, 0x00000000)  returns 0x00 (0000ms, 0647ms total)
T4184 001:012 JLINK_WriteReg(R9, 0x20000160)  returns 0x00 (0000ms, 0647ms total)
T4184 001:012 JLINK_WriteReg(R10, 0x00000000)  returns 0x00 (0000ms, 0647ms total)
T4184 001:012 JLINK_WriteReg(R11, 0x00000000)  returns 0x00 (0000ms, 0647ms total)
T4184 001:012 JLINK_WriteReg(R12, 0x00000000)  returns 0x00 (0000ms, 0647ms total)
T4184 001:012 JLINK_WriteReg(R13 (SP), 0x20000800)  returns 0x00 (0000ms, 0647ms total)
T4184 001:012 JLINK_WriteReg(R14, 0x20000001)  returns 0x00 (0000ms, 0647ms total)
T4184 001:012 JLINK_WriteReg(R15 (PC), 0x200000B6)  returns 0x00 (0000ms, 0647ms total)
T4184 001:012 JLINK_WriteReg(XPSR, 0x01000000)  returns 0x00 (0000ms, 0647ms total)
T4184 001:012 JLINK_WriteReg(MSP, 0x20000800)  returns 0x00 (0000ms, 0647ms total)
T4184 001:012 JLINK_WriteReg(PSP, 0x20000800)  returns 0x00 (0000ms, 0647ms total)
T4184 001:012 JLINK_WriteReg(CFBP, 0x00000000)  returns 0x00 (0000ms, 0647ms total)
T4184 001:012 JLINK_SetBPEx(Addr = 0x20000000, Type = 0xFFFFFFF2)  returns 0x0000000D (0000ms, 0647ms total)
T4184 001:012 JLINK_Go() -- CPU_ReadMem(4 bytes @ 0xE0001000) (0001ms, 0648ms total)
T4184 001:013 JLINK_IsHalted()  returns FALSE (0000ms, 0648ms total)
T4184 001:015 JLINK_IsHalted()  returns FALSE (0000ms, 0648ms total)
T4184 001:017 JLINK_IsHalted()  returns FALSE (0000ms, 0648ms total)
T4184 001:019 JLINK_IsHalted()  returns FALSE (0000ms, 0648ms total)
T4184 001:024 JLINK_IsHalted()  returns FALSE (0000ms, 0648ms total)
T4184 001:026 JLINK_IsHalted()  returns FALSE (0000ms, 0648ms total)
T4184 001:028 JLINK_IsHalted()  returns FALSE (0000ms, 0648ms total)
T4184 001:030 JLINK_IsHalted()  returns FALSE (0000ms, 0648ms total)
T4184 001:032 JLINK_IsHalted()  returns FALSE (0000ms, 0648ms total)
T4184 001:034 JLINK_IsHalted()  returns FALSE (0000ms, 0648ms total)
T4184 001:036 JLINK_IsHalted() -- CPU_ReadMem(2 bytes @ 0x20000000)  returns TRUE (0001ms, 0649ms total)
T4184 001:037 JLINK_ReadReg(R15 (PC))  returns 0x20000000 (0000ms, 0648ms total)
T4184 001:037 JLINK_ClrBPEx(BPHandle = 0x0000000D)  returns 0x00 (0000ms, 0648ms total)
T4184 001:037 JLINK_ReadReg(R0)  returns 0x00000000 (0000ms, 0648ms total)
T4184 001:038 JLINK_WriteReg(R0, 0x08003000)  returns 0x00 (0000ms, 0648ms total)
T4184 001:038 JLINK_WriteReg(R1, 0x00000800)  returns 0x00 (0000ms, 0648ms total)
T4184 001:038 JLINK_WriteReg(R2, 0x000000FF)  returns 0x00 (0000ms, 0648ms total)
T4184 001:038 JLINK_WriteReg(R3, 0x00000000)  returns 0x00 (0000ms, 0648ms total)
T4184 001:038 JLINK_WriteReg(R4, 0x00000000)  returns 0x00 (0000ms, 0648ms total)
T4184 001:038 JLINK_WriteReg(R5, 0x00000000)  returns 0x00 (0000ms, 0648ms total)
T4184 001:038 JLINK_WriteReg(R6, 0x00000000)  returns 0x00 (0000ms, 0648ms total)
T4184 001:038 JLINK_WriteReg(R7, 0x00000000)  returns 0x00 (0000ms, 0648ms total)
T4184 001:038 JLINK_WriteReg(R8, 0x00000000)  returns 0x00 (0000ms, 0648ms total)
T4184 001:038 JLINK_WriteReg(R9, 0x20000160)  returns 0x00 (0000ms, 0648ms total)
T4184 001:038 JLINK_WriteReg(R10, 0x00000000)  returns 0x00 (0000ms, 0648ms total)
T4184 001:038 JLINK_WriteReg(R11, 0x00000000)  returns 0x00 (0000ms, 0648ms total)
T4184 001:038 JLINK_WriteReg(R12, 0x00000000)  returns 0x00 (0000ms, 0648ms total)
T4184 001:038 JLINK_WriteReg(R13 (SP), 0x20000800)  returns 0x00 (0000ms, 0648ms total)
T4184 001:038 JLINK_WriteReg(R14, 0x20000001)  returns 0x00 (0000ms, 0648ms total)
T4184 001:038 JLINK_WriteReg(R15 (PC), 0x20000020)  returns 0x00 (0000ms, 0648ms total)
T4184 001:038 JLINK_WriteReg(XPSR, 0x01000000)  returns 0x00 (0000ms, 0648ms total)
T4184 001:038 JLINK_WriteReg(MSP, 0x20000800)  returns 0x00 (0000ms, 0648ms total)
T4184 001:038 JLINK_WriteReg(PSP, 0x20000800)  returns 0x00 (0000ms, 0648ms total)
T4184 001:038 JLINK_WriteReg(CFBP, 0x00000000)  returns 0x00 (0000ms, 0648ms total)
T4184 001:038 JLINK_SetBPEx(Addr = 0x20000000, Type = 0xFFFFFFF2)  returns 0x0000000E (0000ms, 0648ms total)
T4184 001:038 JLINK_Go() -- CPU_ReadMem(4 bytes @ 0xE0001000) (0001ms, 0649ms total)
T4184 001:039 JLINK_IsHalted() -- CPU_ReadMem(2 bytes @ 0x20000000)  returns TRUE (0002ms, 0651ms total)
T4184 001:041 JLINK_ReadReg(R15 (PC))  returns 0x20000000 (0000ms, 0649ms total)
T4184 001:041 JLINK_ClrBPEx(BPHandle = 0x0000000E)  returns 0x00 (0000ms, 0649ms total)
T4184 001:041 JLINK_ReadReg(R0)  returns 0x00000001 (0000ms, 0649ms total)
T4184 001:041 JLINK_WriteReg(R0, 0x08003000)  returns 0x00 (0000ms, 0649ms total)
T4184 001:041 JLINK_WriteReg(R1, 0x00000800)  returns 0x00 (0000ms, 0649ms total)
T4184 001:041 JLINK_WriteReg(R2, 0x000000FF)  returns 0x00 (0000ms, 0649ms total)
T4184 001:041 JLINK_WriteReg(R3, 0x00000000)  returns 0x00 (0000ms, 0649ms total)
T4184 001:041 JLINK_WriteReg(R4, 0x00000000)  returns 0x00 (0000ms, 0649ms total)
T4184 001:041 JLINK_WriteReg(R5, 0x00000000)  returns 0x00 (0000ms, 0649ms total)
T4184 001:041 JLINK_WriteReg(R6, 0x00000000)  returns 0x00 (0000ms, 0649ms total)
T4184 001:041 JLINK_WriteReg(R7, 0x00000000)  returns 0x00 (0000ms, 0649ms total)
T4184 001:041 JLINK_WriteReg(R8, 0x00000000)  returns 0x00 (0000ms, 0649ms total)
T4184 001:041 JLINK_WriteReg(R9, 0x20000160)  returns 0x00 (0000ms, 0649ms total)
T4184 001:041 JLINK_WriteReg(R10, 0x00000000)  returns 0x00 (0000ms, 0649ms total)
T4184 001:041 JLINK_WriteReg(R11, 0x00000000)  returns 0x00 (0000ms, 0649ms total)
T4184 001:041 JLINK_WriteReg(R12, 0x00000000)  returns 0x00 (0000ms, 0649ms total)
T4184 001:041 JLINK_WriteReg(R13 (SP), 0x20000800)  returns 0x00 (0000ms, 0649ms total)
T4184 001:041 JLINK_WriteReg(R14, 0x20000001)  returns 0x00 (0000ms, 0649ms total)
T4184 001:041 JLINK_WriteReg(R15 (PC), 0x200000B6)  returns 0x00 (0000ms, 0649ms total)
T4184 001:041 JLINK_WriteReg(XPSR, 0x01000000)  returns 0x00 (0000ms, 0649ms total)
T4184 001:041 JLINK_WriteReg(MSP, 0x20000800)  returns 0x00 (0000ms, 0649ms total)
T4184 001:041 JLINK_WriteReg(PSP, 0x20000800)  returns 0x00 (0000ms, 0649ms total)
T4184 001:041 JLINK_WriteReg(CFBP, 0x00000000)  returns 0x00 (0000ms, 0649ms total)
T4184 001:041 JLINK_SetBPEx(Addr = 0x20000000, Type = 0xFFFFFFF2)  returns 0x0000000F (0000ms, 0649ms total)
T4184 001:041 JLINK_Go() -- CPU_ReadMem(4 bytes @ 0xE0001000) (0001ms, 0650ms total)
T4184 001:042 JLINK_IsHalted()  returns FALSE (0000ms, 0650ms total)
T4184 001:045 JLINK_IsHalted()  returns FALSE (0000ms, 0650ms total)
T4184 001:047 JLINK_IsHalted()  returns FALSE (0000ms, 0650ms total)
T4184 001:049 JLINK_IsHalted()  returns FALSE (0002ms, 0652ms total)
T4184 001:052 JLINK_IsHalted()  returns FALSE (0000ms, 0650ms total)
T4184 001:055 JLINK_IsHalted()  returns FALSE (0000ms, 0650ms total)
T4184 001:056 JLINK_IsHalted()  returns FALSE (0000ms, 0650ms total)
T4184 001:058 JLINK_IsHalted()  returns FALSE (0000ms, 0650ms total)
T4184 001:060 JLINK_IsHalted()  returns FALSE (0000ms, 0650ms total)
T4184 001:062 JLINK_IsHalted()  returns FALSE (0000ms, 0650ms total)
T4184 001:064 JLINK_IsHalted()  returns FALSE (0000ms, 0650ms total)
T4184 001:066 JLINK_IsHalted() -- CPU_ReadMem(2 bytes @ 0x20000000)  returns TRUE (0001ms, 0651ms total)
T4184 001:067 JLINK_ReadReg(R15 (PC))  returns 0x20000000 (0000ms, 0650ms total)
T4184 001:067 JLINK_ClrBPEx(BPHandle = 0x0000000F)  returns 0x00 (0000ms, 0650ms total)
T4184 001:067 JLINK_ReadReg(R0)  returns 0x00000000 (0000ms, 0650ms total)
T4184 001:068 JLINK_WriteReg(R0, 0x08003800)  returns 0x00 (0000ms, 0650ms total)
T4184 001:068 JLINK_WriteReg(R1, 0x00000800)  returns 0x00 (0000ms, 0650ms total)
T4184 001:068 JLINK_WriteReg(R2, 0x000000FF)  returns 0x00 (0000ms, 0650ms total)
T4184 001:068 JLINK_WriteReg(R3, 0x00000000)  returns 0x00 (0000ms, 0650ms total)
T4184 001:068 JLINK_WriteReg(R4, 0x00000000)  returns 0x00 (0000ms, 0650ms total)
T4184 001:068 JLINK_WriteReg(R5, 0x00000000)  returns 0x00 (0000ms, 0650ms total)
T4184 001:068 JLINK_WriteReg(R6, 0x00000000)  returns 0x00 (0000ms, 0650ms total)
T4184 001:068 JLINK_WriteReg(R7, 0x00000000)  returns 0x00 (0000ms, 0650ms total)
T4184 001:068 JLINK_WriteReg(R8, 0x00000000)  returns 0x00 (0000ms, 0650ms total)
T4184 001:068 JLINK_WriteReg(R9, 0x20000160)  returns 0x00 (0000ms, 0650ms total)
T4184 001:068 JLINK_WriteReg(R10, 0x00000000)  returns 0x00 (0000ms, 0650ms total)
T4184 001:068 JLINK_WriteReg(R11, 0x00000000)  returns 0x00 (0000ms, 0650ms total)
T4184 001:068 JLINK_WriteReg(R12, 0x00000000)  returns 0x00 (0000ms, 0650ms total)
T4184 001:068 JLINK_WriteReg(R13 (SP), 0x20000800)  returns 0x00 (0000ms, 0650ms total)
T4184 001:068 JLINK_WriteReg(R14, 0x20000001)  returns 0x00 (0000ms, 0650ms total)
T4184 001:068 JLINK_WriteReg(R15 (PC), 0x20000020)  returns 0x00 (0000ms, 0650ms total)
T4184 001:068 JLINK_WriteReg(XPSR, 0x01000000)  returns 0x00 (0000ms, 0650ms total)
T4184 001:068 JLINK_WriteReg(MSP, 0x20000800)  returns 0x00 (0000ms, 0650ms total)
T4184 001:068 JLINK_WriteReg(PSP, 0x20000800)  returns 0x00 (0000ms, 0650ms total)
T4184 001:068 JLINK_WriteReg(CFBP, 0x00000000)  returns 0x00 (0000ms, 0650ms total)
T4184 001:068 JLINK_SetBPEx(Addr = 0x20000000, Type = 0xFFFFFFF2)  returns 0x00000010 (0000ms, 0650ms total)
T4184 001:068 JLINK_Go() -- CPU_ReadMem(4 bytes @ 0xE0001000) (0002ms, 0652ms total)
T4184 001:070 JLINK_IsHalted() -- CPU_ReadMem(2 bytes @ 0x20000000)  returns TRUE (0001ms, 0653ms total)
T4184 001:071 JLINK_ReadReg(R15 (PC))  returns 0x20000000 (0000ms, 0652ms total)
T4184 001:071 JLINK_ClrBPEx(BPHandle = 0x00000010)  returns 0x00 (0000ms, 0652ms total)
T4184 001:071 JLINK_ReadReg(R0)  returns 0x00000001 (0000ms, 0652ms total)
T4184 001:071 JLINK_WriteReg(R0, 0x08003800)  returns 0x00 (0000ms, 0652ms total)
T4184 001:071 JLINK_WriteReg(R1, 0x00000800)  returns 0x00 (0000ms, 0652ms total)
T4184 001:071 JLINK_WriteReg(R2, 0x000000FF)  returns 0x00 (0000ms, 0652ms total)
T4184 001:071 JLINK_WriteReg(R3, 0x00000000)  returns 0x00 (0000ms, 0652ms total)
T4184 001:071 JLINK_WriteReg(R4, 0x00000000)  returns 0x00 (0000ms, 0652ms total)
T4184 001:072 JLINK_WriteReg(R5, 0x00000000)  returns 0x00 (0000ms, 0653ms total)
T4184 001:072 JLINK_WriteReg(R6, 0x00000000)  returns 0x00 (0000ms, 0653ms total)
T4184 001:072 JLINK_WriteReg(R7, 0x00000000)  returns 0x00 (0000ms, 0653ms total)
T4184 001:072 JLINK_WriteReg(R8, 0x00000000)  returns 0x00 (0000ms, 0653ms total)
T4184 001:072 JLINK_WriteReg(R9, 0x20000160)  returns 0x00 (0000ms, 0653ms total)
T4184 001:072 JLINK_WriteReg(R10, 0x00000000)  returns 0x00 (0000ms, 0653ms total)
T4184 001:072 JLINK_WriteReg(R11, 0x00000000)  returns 0x00 (0000ms, 0653ms total)
T4184 001:072 JLINK_WriteReg(R12, 0x00000000)  returns 0x00 (0000ms, 0653ms total)
T4184 001:072 JLINK_WriteReg(R13 (SP), 0x20000800)  returns 0x00 (0000ms, 0653ms total)
T4184 001:072 JLINK_WriteReg(R14, 0x20000001)  returns 0x00 (0000ms, 0653ms total)
T4184 001:072 JLINK_WriteReg(R15 (PC), 0x200000B6)  returns 0x00 (0000ms, 0653ms total)
T4184 001:072 JLINK_WriteReg(XPSR, 0x01000000)  returns 0x00 (0000ms, 0653ms total)
T4184 001:072 JLINK_WriteReg(MSP, 0x20000800)  returns 0x00 (0000ms, 0653ms total)
T4184 001:072 JLINK_WriteReg(PSP, 0x20000800)  returns 0x00 (0000ms, 0653ms total)
T4184 001:072 JLINK_WriteReg(CFBP, 0x00000000)  returns 0x00 (0000ms, 0653ms total)
T4184 001:072 JLINK_SetBPEx(Addr = 0x20000000, Type = 0xFFFFFFF2)  returns 0x00000011 (0000ms, 0653ms total)
T4184 001:072 JLINK_Go() -- CPU_ReadMem(4 bytes @ 0xE0001000) (0001ms, 0654ms total)
T4184 001:073 JLINK_IsHalted()  returns FALSE (0000ms, 0654ms total)
T4184 001:087 JLINK_IsHalted()  returns FALSE (0000ms, 0654ms total)
T4184 001:088 JLINK_IsHalted()  returns FALSE (0000ms, 0654ms total)
T4184 001:090 JLINK_IsHalted()  returns FALSE (0000ms, 0654ms total)
T4184 001:092 JLINK_IsHalted()  returns FALSE (0000ms, 0654ms total)
T4184 001:095 JLINK_IsHalted()  returns FALSE (0000ms, 0654ms total)
T4184 001:097 JLINK_IsHalted() -- CPU_ReadMem(2 bytes @ 0x20000000)  returns TRUE (0001ms, 0655ms total)
T4184 001:098 JLINK_ReadReg(R15 (PC))  returns 0x20000000 (0000ms, 0654ms total)
T4184 001:098 JLINK_ClrBPEx(BPHandle = 0x00000011)  returns 0x00 (0000ms, 0654ms total)
T4184 001:098 JLINK_ReadReg(R0)  returns 0x00000000 (0000ms, 0654ms total)
